# MHz S MA R 50
!   freq        S11       
0.500000  1.00110   -0.35
1.502513  1.00065   -0.84
2.505025  1.00102   -1.40
3.507538  1.00086   -1.95
4.510050  1.00015   -2.53
5.512563  0.99996   -3.10
6.515075  0.99884   -3.68
7.517588  0.99811   -4.22
8.520101  0.99829   -4.77
9.522613  0.99736   -5.34
10.525126  0.99645   -6.00
11.527638  0.98860   -6.38
12.530151  0.99576   -6.93
13.532663  0.99644   -7.64
14.535176  0.99581   -8.33
15.537688  0.99548   -9.03
16.540201  0.99467   -9.80
17.542714  0.99418  -10.66
18.545226  0.99275  -11.68
19.547739  0.98916  -12.91
20.550251  0.97782  -14.49
21.552764  0.96228  -15.67
22.555276  0.92404  -18.02
23.557789  0.86485  -16.57
24.560302  0.82052  -15.50
25.562814  0.84343  -10.04
26.565327  0.86650   -8.62
27.567839  0.90637   -8.44
28.570352  0.93344   -9.36
29.572864  0.95260  -10.64
30.575377  0.96132  -12.11
31.577889  0.96035  -13.37
32.580402  0.95696  -14.24
33.582915  0.95489  -14.72
34.585427  0.95944  -15.17
35.587940  0.96544  -15.98
36.590452  0.96858  -16.96
37.592965  0.96990  -18.01
38.595477  0.96956  -19.04
39.597990  0.96691  -20.22
40.600503  0.95910  -21.39
41.603015  0.94990  -22.16
42.605528  0.94485  -22.82
43.608040  0.94303  -23.77
44.610553  0.93938  -25.10
45.613065  0.92938  -26.99
46.615578  0.90752  -28.82
47.618090  0.86672  -30.60
48.620603  0.79773  -30.26
49.623116  0.75890  -25.14
50.625628  0.80424  -21.28
51.628141  0.85191  -21.95
52.630653  0.87168  -23.14
53.633166  0.90167  -24.38
54.635678  0.91804  -27.51
55.638191  0.90792  -30.70
56.640704  0.88359  -33.59
57.643216  0.83964  -36.33
58.645729  0.77312  -37.35
59.648241  0.71721  -34.81
60.650754  0.70264  -31.48
61.653266  0.69799  -28.65
62.655779  0.72078  -25.48
63.658291  0.76431  -25.16
64.660804  0.79315  -26.93
65.663317  0.79694  -29.08
66.665829  0.78720  -29.82
67.668342  0.79810  -29.87
68.670854  0.81230  -31.41
69.673367  0.81656  -33.06
70.675879  0.82650  -35.25
71.678392  0.81898  -37.94
72.680905  0.81140  -40.30
73.683417  0.79905  -43.45
74.685930  0.77542  -47.09
75.688442  0.73594  -50.34
76.690955  0.68038  -52.73
77.693467  0.62935  -52.78
78.695980  0.61297  -53.42
79.698492  0.59518  -57.00
80.701005  0.56412  -62.20
81.703518  0.50468  -69.53
82.706030  0.41622  -78.51
83.708543  0.29520  -93.29
84.711055  0.12631 -123.80
85.713568  0.11468   95.49
86.716080  0.31172   56.03
87.718593  0.44733   32.85
88.721106  0.47343   17.27
89.723618  0.43317   13.10
90.726131  0.42561   19.76
91.728643  0.48437   26.13
92.731156  0.57353   27.55
93.733668  0.66787   25.41
94.736181  0.74882   21.34
95.738693  0.80743   16.85
96.741206  0.84841   12.69
97.743719  0.87729    9.04
98.746231  0.89799    5.81
99.748744  0.91336    2.99
100.751256  0.92460    0.38
101.753769  0.93193   -2.01
102.756281  0.93338   -4.31
103.758794  0.92843   -6.25
104.761307  0.91942   -7.60
105.763819  0.91476   -8.33
106.766332  0.91792   -8.83
107.768844  0.92575   -9.56
108.771357  0.93411  -10.49
109.773869  0.94051  -11.51
110.776382  0.94552  -12.46
111.778894  0.94963  -13.42
112.781407  0.95370  -14.34
113.783920  0.95744  -15.29
114.786432  0.96003  -16.19
115.788945  0.96141  -17.11
116.791457  0.96169  -17.93
117.793970  0.96247  -18.59
118.796482  0.96409  -19.26
119.798995  0.96630  -19.94
120.801508  0.96965  -20.64
121.804020  0.97173  -21.42
122.806533  0.97266  -22.08
123.809045  0.97363  -22.82
124.811558  0.97513  -23.49
125.814070  0.97626  -24.15
126.816583  0.97735  -24.82
127.819095  0.97920  -25.51
128.821608  0.97983  -26.08
129.824121  0.98090  -26.83
130.826633  0.98126  -27.39
131.829146  0.98219  -28.06
132.831658  0.98263  -28.71
133.834171  0.98243  -29.36
134.836683  0.98199  -30.02
135.839196  0.98184  -30.62
136.841709  0.98169  -31.14
137.844221  0.98178  -31.79
138.846734  0.98197  -32.42
139.849246  0.98178  -32.98
140.851759  0.98166  -33.56
141.854271  0.98144  -34.18
142.856784  0.98148  -34.69
143.859296  0.98194  -35.35
144.861809  0.98202  -35.97
145.864322  0.98227  -36.58
146.866834  0.98207  -37.22
147.869347  0.98201  -37.94
148.871859  0.98175  -38.59
149.874372  0.98088  -39.37
150.876884  0.97931  -40.13
151.879397  0.97686  -40.87
152.881910  0.97409  -41.59
153.884422  0.97030  -42.32
154.886935  0.96486  -43.06
155.889447  0.96025  -43.68
156.891960  0.95521  -44.29
157.894472  0.95176  -44.87
158.896985  0.94913  -45.45
159.899497  0.94584  -46.16
160.902010  0.94140  -47.00
161.904523  0.93540  -47.79
162.907035  0.92779  -48.50
163.909548  0.91966  -49.20
164.912060  0.91182  -49.84
165.914573  0.90329  -50.50
166.917085  0.89372  -51.14
167.919598  0.88337  -51.69
168.922111  0.87184  -52.17
169.924623  0.86157  -52.50
170.927136  0.85139  -52.81
171.929648  0.84336  -52.91
172.932161  0.83984  -53.03
173.934673  0.83996  -53.66
174.937186  0.83607  -54.87
175.939698  0.82346  -56.35
176.942211  0.79816  -57.82
177.944724  0.76122  -58.84
178.947236  0.71472  -58.72
179.949749  0.67111  -56.04
180.952261  0.65658  -51.43
181.954774  0.67984  -47.65
182.957286  0.71355  -46.07
183.959799  0.74344  -46.06
184.962312  0.76616  -46.76
185.964824  0.78134  -47.78
186.967337  0.79185  -48.95
187.969849  0.79833  -50.38
188.972362  0.79990  -52.08
189.974874  0.79190  -54.10
190.977387  0.77392  -56.08
191.979899  0.74266  -57.71
192.982412  0.69678  -58.49
193.984925  0.64695  -57.29
194.987437  0.60851  -53.71
195.989950  0.59722  -48.56
196.992462  0.61683  -43.92
197.994975  0.65344  -41.26
198.997487  0.69270  -40.52
200.000000  0.72391  -40.89
